hour, t(sec), V1, VAngle1, V2, VAngle2, V3, VAngle3, I1, IAngle1, I2, IAngle2, I3, IAngle3
0, 900.00000, 2416.71, -0.00785746, 2416.82, -120.007, 2416.75, 119.991, 295.334, -20.3366, 221.792, -131.312, 305.321, 104.491
0, 1800.00000, 2431.76, -0.00742069, 2431.86, -120.007, 2431.8, 119.991, 268.722, -18.623, 202.727, -129.035, 277.866, 106.942
0, 2700.00000, 2446.79, -0.0071139, 2446.89, -120.007, 2446.84, 119.992, 249.712, -17.1657, 189.206, -127.078, 258.477, 109.044
1, 0.00000, 2461.82, -0.0069597, 2446.91, -120.006, 2461.87, 119.992, 238.918, -16.1933, 182.141, -126.023, 247.608, 110.47
1, 900.00000, 2461.82, -0.00692858, 2446.91, -120.006, 2461.87, 119.992, 237.322, -16.0568, 181.005, -125.851, 245.977, 110.668
1, 1800.00000, 2461.81, -0.0070637, 2446.9, -120.006, 2461.86, 119.992, 244.254, -16.6364, 185.973, -126.587, 253.044, 109.831
1, 2700.00000, 2461.79, -0.00732379, 2446.89, -120.007, 2461.84, 119.991, 257.715, -17.6763, 195.643, -127.907, 266.843, 108.331
2, 0.00000, 2461.78, -0.00753647, 2446.87, -120.007, 2461.82, 119.991, 268.834, -18.4609, 203.65, -128.903, 278.309, 107.204
2, 900.00000, 2476.76, -0.00787923, 2446.85, -120.007, 2461.79, 119.991, 284.226, -19.3659, 215.411, -130.227, 295.306, 105.708
2, 1800.00000, 2476.73, -0.00826655, 2461.84, -120.008, 2476.77, 119.99, 304.47, -20.545, 229.486, -131.446, 315.59, 104.243
2, 2700.00000, 2476.71, -0.00849584, 2461.83, -120.008, 2476.76, 119.99, 316.791, -21.1897, 238.397, -132.258, 328.475, 103.335
3, 0.00000, 2476.71, -0.00858211, 2461.83, -120.008, 2476.75, 119.99, 321.445, -21.4216, 241.784, -132.551, 333.35, 103.009
3, 900.00000, 2476.7, -0.00865857, 2461.82, -120.008, 2476.74, 119.99, 325.591, -21.6235, 244.785, -132.804, 337.709, 102.726
3, 1800.00000, 2476.71, -0.00854194, 2461.83, -120.008, 2476.75, 119.99, 319.283, -21.3148, 240.199, -132.415, 331.093, 103.159
3, 2700.00000, 2476.71, -0.00854891, 2461.83, -120.008, 2476.75, 119.99, 319.657, -21.3334, 240.474, -132.438, 331.483, 103.133
4, 0.00000, 2476.7, -0.00859477, 2461.82, -120.008, 2476.75, 119.99, 322.135, -21.4556, 242.276, -132.593, 334.08, 102.962
4, 900.00000, 2476.68, -0.00891168, 2461.81, -120.008, 2476.72, 119.989, 339.395, -22.2648, 254.78, -133.606, 352.25, 101.832
4, 1800.00000, 2491.58, -0.0101944, 2461.73, -120.01, 2476.61, 119.988, 407.473, -24.8153, 305.06, -136.879, 425.959, 98.2065
4, 2700.00000, 2506.57, -0.0105424, 2476.72, -120.01, 2491.6, 119.987, 423.077, -25.2662, 316.488, -137.335, 442.92, 97.6178
5, 0.00000, 2506.59, -0.0102939, 2476.74, -120.01, 2506.63, 119.988, 408.573, -24.8001, 306.063, -136.745, 425.996, 98.3962
5, 900.00000, 2506.62, -0.00997677, 2476.76, -120.009, 2506.66, 119.988, 390.788, -24.1896, 293.119, -136.002, 407.061, 99.22
5, 1800.00000, 2506.65, -0.00953597, 2476.78, -120.009, 2506.7, 119.989, 366.364, -23.2724, 275.351, -134.879, 381.13, 100.471
5, 2700.00000, 2506.71, -0.00886726, 2476.83, -120.008, 2506.75, 119.989, 329.987, -21.696, 248.893, -132.927, 342.703, 102.656
6, 0.00000, 2506.78, -0.0080526, 2476.87, -120.007, 2506.82, 119.99, 286.787, -19.3742, 217.551, -130.023, 297.449, 105.937
6, 900.00000, 2506.83, -0.00742713, 2476.91, -120.007, 2491.86, 119.991, 254.927, -17.1992, 194.423, -127.312, 265.238, 108.804
6, 1800.00000, 2491.84, -0.00703772, 2476.93, -120.006, 2476.88, 119.992, 237.982, -15.9208, 181.618, -125.516, 247.692, 110.608
6, 2700.00000, 2491.86, -0.00684606, 2476.94, -120.006, 2476.89, 119.992, 228.349, -15.0539, 174.737, -124.415, 237.876, 111.85
7, 0.00000, 2491.86, -0.00679659, 2476.94, -120.006, 2476.9, 119.992, 225.877, -14.8197, 172.972, -124.118, 235.37, 112.186
7, 900.00000, 2491.85, -0.00689615, 2476.94, -120.006, 2476.89, 119.992, 230.855, -15.2863, 176.534, -124.711, 240.417, 111.517
7, 1800.00000, 2491.82, -0.00726651, 2476.92, -120.007, 2476.86, 119.991, 249.599, -16.8799, 189.93, -126.733, 259.614, 109.235
7, 2700.00000, 2491.77, -0.00794955, 2476.88, -120.007, 2476.8, 119.991, 284.946, -19.3392, 215.364, -129.856, 296.275, 105.738
8, 0.00000, 2491.72, -0.00860551, 2476.84, -120.008, 2476.75, 119.99, 319.772, -21.2681, 240.54, -132.292, 332.835, 103.032
8, 900.00000, 2491.68, -0.00905235, 2476.81, -120.008, 2476.71, 119.989, 343.967, -22.4018, 258.061, -133.713, 358.421, 101.463
8, 1800.00000, 2491.64, -0.00957439, 2476.78, -120.009, 2491.68, 119.989, 372.296, -23.5694, 278.703, -135.135, 387.317, 100.041
8, 2700.00000, 2491.6, -0.0100426, 2476.75, -120.01, 2491.64, 119.988, 398.486, -24.52, 297.678, -136.306, 415.107, 98.7511
9, 0.00000, 2491.61, -0.00991774, 2476.76, -120.009, 2491.65, 119.988, 391.461, -24.2752, 292.584, -136.005, 407.635, 99.0818
9, 900.00000, 2491.62, -0.00972802, 2476.77, -120.009, 2491.67, 119.988, 380.841, -23.891, 284.884, -135.532, 396.347, 99.6033
9, 1800.00000, 2491.64, -0.00951153, 2476.78, -120.009, 2491.68, 119.989, 368.802, -23.4333, 276.157, -134.967, 383.569, 100.228
9, 2700.00000, 2491.65, -0.00938483, 2476.79, -120.009, 2491.7, 119.989, 361.794, -23.1552, 271.08, -134.622, 376.139, 100.61
10, 0.00000, 2491.67, -0.00921999, 2476.8, -120.009, 2491.71, 119.989, 352.725, -22.7815, 264.505, -134.158, 366.54, 101.125
10, 900.00000, 2491.64, -0.00951058, 2476.78, -120.009, 2491.68, 119.989, 368.739, -23.4306, 276.125, -134.965, 383.484, 100.232
10, 1800.00000, 2491.55, -0.0106189, 2476.71, -120.01, 2491.59, 119.987, 431.293, -25.578, 321.445, -137.592, 450.102, 97.337
10, 2700.00000, 2506.53, -0.0109634, 2476.69, -120.01, 2506.57, 119.987, 446.751, -25.9777, 333.792, -138.16, 466.782, 96.8306
11, 0.00000, 2506.56, -0.0106349, 2476.71, -120.01, 2506.6, 119.987, 427.909, -25.417, 320.113, -137.489, 446.625, 97.572
11, 900.00000, 2506.59, -0.0102987, 2476.74, -120.01, 2506.63, 119.988, 408.853, -24.8093, 306.251, -136.755, 426.305, 98.3837
11, 1800.00000, 2506.63, -0.00976609, 2476.77, -120.009, 2506.68, 119.988, 379.072, -23.7617, 284.59, -135.479, 394.622, 99.8015
11, 2700.00000, 2506.7, -0.00897536, 2476.82, -120.008, 2506.74, 119.989, 335.808, -21.9683, 253.139, -133.266, 348.814, 102.277
12, 0.00000, 2506.76, -0.00825425, 2476.86, -120.008, 2506.81, 119.99, 297.361, -19.9988, 225.216, -130.807, 308.47, 105.049
12, 900.00000, 2506.81, -0.00757421, 2476.9, -120.007, 2491.85, 119.991, 262.446, -17.7561, 199.845, -128.013, 273.006, 108.01
12, 1800.00000, 2491.84, -0.00711749, 2476.93, -120.007, 2476.87, 119.992, 242.018, -16.2641, 184.505, -125.952, 251.825, 110.116
12, 2700.00000, 2491.85, -0.00687325, 2476.94, -120.006, 2476.89, 119.992, 229.711, -15.1807, 175.708, -124.576, 239.261, 111.668
13, 0.00000, 2491.86, -0.00676315, 2476.95, -120.006, 2476.9, 119.992, 224.211, -14.6589, 171.78, -123.913, 233.686, 112.416
13, 900.00000, 2491.86, -0.00679076, 2476.94, -120.006, 2476.9, 119.992, 225.584, -14.7917, 172.771, -124.083, 235.066, 112.226
13, 1800.00000, 2491.85, -0.00691801, 2476.94, -120.006, 2476.89, 119.992, 231.956, -15.3867, 177.309, -124.837, 241.545, 111.373
13, 2700.00000, 2491.83, -0.00724821, 2476.92, -120.007, 2476.86, 119.991, 248.666, -16.8061, 189.261, -126.639, 258.654, 109.341
14, 0.00000, 2491.79, -0.00766186, 2476.89, -120.007, 2476.83, 119.991, 269.941, -18.3691, 204.546, -128.625, 280.649, 107.113
14, 900.00000, 2491.75, -0.00820634, 2476.86, -120.008, 2476.78, 119.99, 298.482, -20.1373, 225.138, -130.866, 310.443, 104.614
14, 1800.00000, 2491.71, -0.00873369, 2476.83, -120.008, 2476.74, 119.99, 326.675, -21.6066, 245.536, -132.718, 340.122, 102.562
14, 2700.00000, 2491.69, -0.00894581, 2476.82, -120.008, 2476.72, 119.989, 338.168, -22.1433, 253.856, -133.39, 352.281, 101.819
15, 0.00000, 2491.68, -0.00910912, 2476.81, -120.009, 2476.71, 119.989, 347.072, -22.5376, 260.307, -133.882, 361.717, 101.276
15, 900.00000, 2491.67, -0.00915843, 2476.8, -120.009, 2491.71, 119.989, 349.357, -22.6392, 262.074, -133.98, 363.015, 101.321
15, 1800.00000, 2491.69, -0.0089887, 2476.81, -120.008, 2491.73, 119.989, 340.083, -22.2323, 255.343, -133.473, 353.185, 101.886
15, 2700.00000, 2491.7, -0.00880969, 2476.83, -120.008, 2491.74, 119.99, 330.367, -21.7856, 248.304, -132.913, 342.944, 102.509
16, 0.00000, 2491.71, -0.00870595, 2476.83, -120.008, 2491.75, 119.99, 324.763, -21.5173, 244.247, -132.577, 337.044, 102.884
16, 900.00000, 2491.67, -0.00915778, 2476.8, -120.009, 2491.71, 119.989, 349.305, -22.636, 262.04, -133.978, 362.905, 101.326
16, 1800.00000, 2491.57, -0.010336, 2476.73, -120.01, 2491.61, 119.988, 415.106, -25.0725, 309.723, -136.98, 432.816, 98.0094
16, 2700.00000, 2506.55, -0.0107322, 2476.71, -120.01, 2506.59, 119.987, 433.47, -25.5865, 324.149, -137.693, 452.575, 97.3471
17, 0.00000, 2506.57, -0.0104406, 2476.73, -120.01, 2506.62, 119.987, 416.865, -25.0702, 312.089, -137.072, 434.833, 98.0344
17, 900.00000, 2506.6, -0.0101249, 2476.75, -120.01, 2506.65, 119.988, 399.076, -24.4795, 299.145, -136.355, 415.885, 98.8277
17, 1800.00000, 2506.64, -0.00971512, 2476.77, -120.009, 2506.68, 119.988, 376.248, -23.6554, 282.54, -135.349, 391.616, 99.9468
17, 2700.00000, 2506.69, -0.00914453, 2476.81, -120.009, 2506.73, 119.989, 344.971, -22.3798, 259.787, -133.776, 358.502, 101.704
18, 0.00000, 2506.75, -0.00837609, 2476.85, -120.008, 2506.8, 119.99, 303.789, -20.359, 229.879, -131.258, 315.187, 104.538
18, 900.00000, 2506.81, -0.007679, 2476.9, -120.007, 2491.84, 119.991, 267.83, -18.1367, 203.732, -128.493, 278.584, 107.469
18, 1800.00000, 2491.82, -0.00727914, 2476.92, -120.007, 2491.87, 119.991, 249.818, -16.9021, 190.191, -126.736, 259.111, 109.458
18, 2700.00000, 2491.85, -0.00698789, 2476.93, -120.006, 2491.89, 119.992, 235.044, -15.6687, 179.608, -125.17, 244.027, 111.239
19, 0.00000, 2491.86, -0.00686534, 2476.94, -120.006, 2476.89, 119.992, 229.312, -15.1433, 175.421, -124.529, 238.842, 111.723
19, 900.00000, 2491.85, -0.00688125, 2476.94, -120.006, 2476.89, 119.992, 230.111, -15.2178, 175.993, -124.623, 239.669, 111.615
19, 1800.00000, 2491.85, -0.00698167, 2476.93, -120.006, 2476.88, 119.992, 235.153, -15.6734, 179.601, -125.202, 244.8, 110.962
19, 2700.00000, 2491.83, -0.00723389, 2476.92, -120.007, 2476.86, 119.991, 247.936, -16.748, 188.737, -126.566, 257.905, 109.424
20, 0.00000, 2491.8, -0.00758819, 2476.9, -120.007, 2476.83, 119.991, 266.125, -18.1061, 201.8, -128.291, 276.691, 107.487
20, 900.00000, 2491.75, -0.0081505, 2476.86, -120.008, 2476.79, 119.99, 295.527, -19.9687, 223.003, -130.653, 307.347, 104.851
20, 1800.00000, 2491.73, -0.00846151, 2476.85, -120.008, 2476.76, 119.99, 312.06, -20.8746, 234.954, -131.796, 324.715, 103.581
20, 2700.00000, 2491.71, -0.00866422, 2476.83, -120.008, 2476.74, 119.99, 322.935, -21.4251, 242.823, -132.489, 336.179, 102.814
21, 0.00000, 2491.71, -0.00873746, 2476.83, -120.008, 2476.74, 119.99, 326.876, -21.616, 245.685, -132.73, 340.335, 102.548
21, 900.00000, 2491.7, -0.0088046, 2476.82, -120.008, 2476.73, 119.99, 330.504, -21.7887, 248.312, -132.946, 344.17, 102.309
21, 1800.00000, 2491.69, -0.00892791, 2476.82, -120.008, 2476.72, 119.989, 337.197, -22.0993, 253.151, -133.334, 351.255, 101.88
21, 2700.00000, 2491.69, -0.0089551, 2476.82, -120.008, 2476.72, 119.989, 338.673, -22.166, 254.223, -133.418, 352.816, 101.788
22, 0.00000, 2491.7, -0.00881807, 2476.82, -120.008, 2476.73, 119.99, 331.245, -21.8243, 248.836, -132.989, 344.961, 102.26
22, 900.00000, 2491.67, -0.00922473, 2476.8, -120.009, 2476.7, 119.989, 353.399, -22.8072, 264.896, -134.219, 368.429, 100.907
22, 1800.00000, 2491.54, -0.0107227, 2476.71, -120.01, 2491.58, 119.987, 437.279, -25.7579, 325.776, -137.808, 456.521, 97.099
22, 2700.00000, 2506.51, -0.0111969, 2476.68, -120.011, 2506.55, 119.987, 460.26, -26.3578, 343.593, -138.612, 481.252, 96.3326
23, 0.00000, 2506.53, -0.0109748, 2476.69, -120.01, 2506.57, 119.987, 447.401, -25.9963, 334.267, -138.183, 467.472, 96.8062
23, 900.00000, 2506.56, -0.010629, 2476.72, -120.01, 2506.6, 119.987, 427.584, -25.4072, 319.861, -137.477, 446.3, 97.5849
23, 1800.00000, 2506.61, -0.0100503, 2476.75, -120.009, 2506.65, 119.988, 394.894, -24.3344, 296.114, -136.179, 411.422, 99.024
23, 2700.00000, 2506.68, -0.00917379, 2476.81, -120.009, 2506.73, 119.989, 346.556, -22.4495, 260.954, -133.863, 360.157, 101.608
24, 0.00000, 2506.76, -0.00818971, 2476.87, -120.008, 2506.81, 119.99, 293.968, -19.8028, 222.756, -130.561, 304.933, 105.327
